T62F8 000:006.708   SEGGER J-Link V9.46 Log File
T62F8 000:007.143   DLL Compiled: May 27 2026 12:18:17
T62F8 000:007.150   Logging started @ 2026-06-22 08:10
T62F8 000:007.155   Process: D:\keil5\UV4\UV4.exe
T62F8 000:007.176 - 7.161ms 
T62F8 000:007.186 JLINK_SetWarnOutHandler(...)
T62F8 000:007.197 - 0.012ms 
T62F8 000:007.210 JLINK_OpenEx(...)
T62F8 000:011.213   Firmware: J-Link V9 compiled Dec 13 2022 11:14:50
T62F8 000:012.523   Firmware: J-Link V9 compiled Dec 13 2022 11:14:50
T62F8 000:024.893   Decompressing FW timestamp took 12220 us
T62F8 000:032.194   Hardware: V9.70
T62F8 000:032.214   S/N: 69730343
T62F8 000:032.222   OEM: SEGGER
T62F8 000:032.229   Feature(s): RDI, GDB, FlashDL, FlashBP, JFlash
T62F8 000:033.414   Bootloader: (FW returned invalid version)
T62F8 000:034.702   TELNET listener socket opened on port 19021
T62F8 000:034.788   WEBSRV WEBSRV_Init(): Starting webserver thread(s)
T62F8 000:034.901   WEBSRV Webserver running on local port 19080
T62F8 000:035.220   Looking for J-Link GUI Server exe at: D:\keil5\ARM\Segger\JLinkGUIServer.exe
T62F8 000:035.335   Looking for J-Link GUI Server exe at: C:\Program Files\SEGGER\JLink\JLinkGUIServer.exe
T62F8 000:035.404   Forking J-Link GUI Server: C:\Program Files\SEGGER\JLink\JLinkGUIServer.exe
T62F8 000:252.625   J-Link GUI Server info: "J-Link GUI server V9.46 "
T62F8 000:254.613 - 247.387ms returns "O.K."
T62F8 000:254.650 JLINK_GetEmuCaps()
T62F8 000:254.662 - 0.008ms returns 0xB9FF7BBF
T62F8 000:254.670 JLINK_TIF_GetAvailable(...)
T62F8 000:255.056 - 0.386ms 
T62F8 000:255.067 JLINK_SetErrorOutHandler(...)
T62F8 000:255.072 - 0.005ms 
T62F8 000:255.257 JLINK_ExecCommand("ProjectFile = "E:\N32\N32G033\JLinkSettings.ini"", ...). 
T62F8 000:307.889   Ref file found at: D:\keil5\ARM\Segger\JLinkDevices.ref
T62F8 000:308.087   REF file references invalid XML file: C:\Program Files\SEGGER\JLink\JLinkDevices.xml
T62F8 000:312.058   Device "CORTEX-M0" selected.
T62F8 000:312.418 - 57.162ms returns 0x00
T62F8 000:314.748 JLINK_ExecCommand("Device = N32G033K8", ...). 
T62F8 000:317.723   Flash bank @ 0x08000000: SFL: Parsing sectorization info from ELF file
T62F8 000:317.745     FlashDevice.SectorInfo[0]: .SectorSize = 0x00000200, .SectorStartAddr = 0x00000000
T62F8 000:317.753   FlashBank @0x08000000: Sectorization info from SFL ELF file ignored because sectorization override from DLL / XML file is active.
T62F8 000:317.829   Flash bank @ 0x1FFFF600: SFL: Parsing sectorization info from ELF file
T62F8 000:317.838     FlashDevice.SectorInfo[0]: .SectorSize = 0x0000001C, .SectorStartAddr = 0x00000000
T62F8 000:317.846   FlashBank @0x1FFFF600: Sectorization info from SFL ELF file ignored because sectorization override from DLL / XML file is active.
T62F8 000:321.054   Device "N32G033K8" selected.
T62F8 000:321.530 - 6.780ms returns 0x00
T62F8 000:321.582   ERROR: Unknown command
T62F8 000:321.594 JLINK_GetHardwareVersion()
T62F8 000:321.606 - 0.006ms returns 97000
T62F8 000:321.619 JLINK_GetDLLVersion()
T62F8 000:321.625 - 0.006ms returns 94600
T62F8 000:321.641 JLINK_GetOEMString(...)
T62F8 000:321.649 JLINK_GetFirmwareString(...)
T62F8 000:321.655 - 0.005ms 
T62F8 000:328.235 JLINK_GetDLLVersion()
T62F8 000:328.257 - 0.020ms returns 94600
T62F8 000:328.264 JLINK_GetCompileDateTime()
T62F8 000:328.269 - 0.005ms 
T62F8 000:330.357 JLINK_GetFirmwareString(...)
T62F8 000:330.375 - 0.017ms 
T62F8 000:332.495 JLINK_GetHardwareVersion()
T62F8 000:332.514 - 0.018ms returns 97000
T62F8 000:334.599 JLINK_GetSN()
T62F8 000:334.616 - 0.017ms returns 69730343
T62F8 000:337.340 JLINK_GetOEMString(...)
T62F8 000:341.711 JLINK_TIF_Select(JLINKARM_TIF_SWD)
T62F8 000:343.008 - 1.307ms returns 0x00
T62F8 000:343.019 JLINK_HasError()
T62F8 000:343.031 JLINK_SetSpeed(2000)
T62F8 000:343.316 - 0.288ms 
T62F8 000:343.324 JLINK_GetId()
T62F8 000:345.827   InitTarget() start
T62F8 000:345.857    J-Link Script File: Executing InitTarget()
T62F8 000:359.856   InitTarget() end - Took 11.5ms
T62F8 000:363.116   Found SW-DP with ID 0x0BB11477
T62F8 000:366.009   Old FW that does not support reading DPIDR via DAP jobs
T62F8 000:371.459   DPv0 detected
T62F8 000:375.196   CoreSight SoC-400 or earlier
T62F8 000:378.109   Scanning AP map to find all available APs
T62F8 000:381.362   AP[1]: Stopped AP scan as end of AP map has been reached
T62F8 000:383.916   AP[0]: AHB-AP (IDR: 0x04770021, ADDR: 0x00000000)
T62F8 000:386.075   Iterating through AP map to find AHB-AP to use
T62F8 000:389.532   AP[0]: Core found
T62F8 000:391.734   AP[0]: AHB-AP ROM base: 0xE00FF000
T62F8 000:394.832   CPUID register: 0x410CC200. Implementer code: 0x41 (ARM)
T62F8 000:397.118   Found Cortex-M0 r0p0, Little endian.
T62F8 000:397.875   -- Max. mem block: 0x00010BB0
T62F8 000:398.609   CPU_ReadMem(4 bytes @ 0xE000EDF0)
T62F8 000:399.228   CPU_ReadMem(4 bytes @ 0xE0002000)
T62F8 000:402.184   FPUnit: 2 code (BP) slots and 0 literal slots
T62F8 000:402.211   CPU_ReadMem(4 bytes @ 0xE000EDFC)
T62F8 000:402.747   CPU_WriteMem(4 bytes @ 0xE000EDFC)
T62F8 000:403.303   CPU_ReadMem(4 bytes @ 0xE0001000)
T62F8 000:403.841   CPU_WriteMem(4 bytes @ 0xE0001000)
T62F8 000:406.506   CoreSight components:
T62F8 000:408.751   ROMTbl[0] @ E00FF000
T62F8 000:408.773   CPU_ReadMem(64 bytes @ 0xE00FF000)
T62F8 000:409.757   CPU_ReadMem(32 bytes @ 0xE000EFE0)
T62F8 000:412.655   [0][0]: E000E000 CID B105E00D PID 000BB008 SCS
T62F8 000:412.674   CPU_ReadMem(32 bytes @ 0xE0001FE0)
T62F8 000:415.695   [0][1]: E0001000 CID B105E00D PID 000BB00A DWT
T62F8 000:415.716   CPU_ReadMem(32 bytes @ 0xE0002FE0)
T62F8 000:418.594   [0][2]: E0002000 CID B105E00D PID 000BB00B FPB
T62F8 000:419.078 - 75.753ms returns 0x0BB11477
T62F8 000:419.156 JLINK_GetDLLVersion()
T62F8 000:419.162 - 0.005ms returns 94600
T62F8 000:419.168 JLINK_CORE_GetFound()
T62F8 000:419.174 - 0.005ms returns 0x60000FF
T62F8 000:419.180 JLINK_GetDebugInfo(0x100 = JLINKARM_ROM_TABLE_ADDR_INDEX)
T62F8 000:419.186   Value=0xE00FF000
T62F8 000:419.194 - 0.014ms returns 0
T62F8 000:421.245 JLINK_GetDebugInfo(0x100 = JLINKARM_ROM_TABLE_ADDR_INDEX)
T62F8 000:421.260   Value=0xE00FF000
T62F8 000:421.268 - 0.023ms returns 0
T62F8 000:421.275 JLINK_GetDebugInfo(0x101 = JLINKARM_DEBUG_INFO_ETM_ADDR_INDEX)
T62F8 000:421.280   Value=0x00000000
T62F8 000:421.287 - 0.012ms returns 0
T62F8 000:421.307 JLINK_ReadMemEx(0xE0041FF0, 0x10 Bytes, Flags = 0x02000004)
T62F8 000:421.336   CPU_ReadMem(16 bytes @ 0xE0041FF0)
T62F8 000:421.986   Data:  00 00 00 00 00 00 00 00 00 00 00 00 00 00 00 00
T62F8 000:421.996 - 0.688ms returns 16 (0x10)
T62F8 000:422.002 JLINK_GetDebugInfo(0x102 = JLINKARM_DEBUG_INFO_MTB_ADDR_INDEX)
T62F8 000:422.007   Value=0x00000000
T62F8 000:422.014 - 0.012ms returns 0
T62F8 000:422.021 JLINK_GetDebugInfo(0x103 = JLINKARM_DEBUG_INFO_TPIU_ADDR_INDEX)
T62F8 000:422.026   Value=0x00000000
T62F8 000:422.033 - 0.012ms returns 0
T62F8 000:422.039 JLINK_GetDebugInfo(0x104 = JLINKARM_DEBUG_INFO_ITM_ADDR_INDEX)
T62F8 000:422.044   Value=0xE0000000
T62F8 000:422.051 - 0.012ms returns 0
T62F8 000:422.056 JLINK_GetDebugInfo(0x105 = JLINKARM_DEBUG_INFO_DWT_ADDR_INDEX)
T62F8 000:422.061   Value=0xE0001000
T62F8 000:422.068 - 0.012ms returns 0
T62F8 000:422.074 JLINK_GetDebugInfo(0x106 = JLINKARM_DEBUG_INFO_FPB_ADDR_INDEX)
T62F8 000:422.079   Value=0xE0002000
T62F8 000:422.086 - 0.012ms returns 0
T62F8 000:422.092 JLINK_GetDebugInfo(0x107 = JLINKARM_DEBUG_INFO_NVIC_ADDR_INDEX)
T62F8 000:422.097   Value=0xE000E000
T62F8 000:422.104 - 0.012ms returns 0
T62F8 000:422.110 JLINK_GetDebugInfo(0x10C = JLINKARM_DEBUG_INFO_DBG_ADDR_INDEX)
T62F8 000:422.114   Value=0xE000EDF0
T62F8 000:422.122 - 0.012ms returns 0
T62F8 000:422.128 JLINK_GetDebugInfo(0x01 = Unknown)
T62F8 000:422.132   Value=0x00000000
T62F8 000:422.140 - 0.012ms returns 0
T62F8 000:422.146 JLINK_ReadMemU32(0xE000ED00, 0x1 Items)
T62F8 000:422.152   CPU_ReadMem(4 bytes @ 0xE000ED00)
T62F8 000:422.623   Data:  00 C2 0C 41
T62F8 000:422.636   Debug reg: CPUID
T62F8 000:422.644 - 0.498ms returns 1 (0x1)
T62F8 000:422.651 JLINK_GetDebugInfo(0x10F = JLINKARM_DEBUG_INFO_HAS_CORTEX_M_SECURITY_EXT_INDEX)
T62F8 000:422.660   Value=0x00000000
T62F8 000:422.667 - 0.016ms returns 0
T62F8 000:422.673 JLINK_HasError()
T62F8 000:422.680 JLINK_SetResetType(JLINKARM_CM3_RESET_TYPE_NORMAL)
T62F8 000:422.685 - 0.005ms returns JLINKARM_CM3_RESET_TYPE_NORMAL
T62F8 000:422.696 JLINK_Reset()
T62F8 000:422.705   JLINK_GetResetTypeDesc
T62F8 000:422.710   - 0.005ms 
T62F8 000:424.864   Reset type: NORMAL (https://kb.segger.com/J-Link_Reset_Strategies)
T62F8 000:424.892   CPU is running
T62F8 000:424.903   CPU_WriteMem(4 bytes @ 0xE000EDF0)
T62F8 000:425.408   CPU is running
T62F8 000:425.417   CPU_WriteMem(4 bytes @ 0xE000EDFC)
T62F8 000:428.082   Reset: Halt core after reset via DEMCR.VC_CORERESET.
T62F8 000:431.200   Reset: Reset device via AIRCR.SYSRESETREQ.
T62F8 000:431.223   CPU is running
T62F8 000:431.232   CPU_WriteMem(4 bytes @ 0xE000ED0C)
T62F8 000:485.187   CPU_ReadMem(4 bytes @ 0xE000EDF0)
T62F8 000:485.876   CPU_ReadMem(4 bytes @ 0xE000EDF0)
T62F8 000:490.480   CPU_WriteMem(4 bytes @ 0xE000EDFC)
T62F8 000:496.470   CPU_ReadMem(4 bytes @ 0xE000EDF0)
T62F8 000:500.695   CPU_WriteMem(4 bytes @ 0xE0002000)
T62F8 000:501.317   CPU_ReadMem(4 bytes @ 0xE000EDFC)
T62F8 000:501.793   CPU_ReadMem(4 bytes @ 0xE0001000)
T62F8 000:502.316   CPU_WriteMem(4 bytes @ 0xE0001000)
T62F8 000:502.867 - 80.170ms 
T62F8 000:502.964 JLINK_Halt()
T62F8 000:502.973 - 0.008ms returns 0x00
T62F8 000:502.980 JLINK_ReadMemU32(0xE000EDF0, 0x1 Items)
T62F8 000:502.989   CPU_ReadMem(4 bytes @ 0xE000EDF0)
T62F8 000:503.565   Data:  03 00 03 00
T62F8 000:503.574   Debug reg: DHCSR
T62F8 000:503.581 - 0.601ms returns 1 (0x1)
T62F8 000:503.609 JLINK_WriteU32(0xE000EDF0, 0xA05F0003)
T62F8 000:503.615   Debug reg: DHCSR
T62F8 000:503.887   CPU_WriteMem(4 bytes @ 0xE000EDF0)
T62F8 000:504.405 - 0.795ms returns 0 (0x00000000)
T62F8 000:504.425 JLINK_WriteU32(0xE000EDFC, 0x01000000)
T62F8 000:504.430   Debug reg: DEMCR
T62F8 000:504.442   CPU_WriteMem(4 bytes @ 0xE000EDFC)
T62F8 000:504.955 - 0.530ms returns 0 (0x00000000)
T62F8 000:516.153 JLINK_GetHWStatus(...)
T62F8 000:516.538 - 0.399ms returns 0
T62F8 000:523.842 JLINK_GetNumBPUnits(Type = 0xFFFFFF00)
T62F8 000:523.864 - 0.022ms returns 0x02
T62F8 000:523.871 JLINK_GetNumBPUnits(Type = 0xF0)
T62F8 000:523.877 - 0.006ms returns 0x2000
T62F8 000:523.883 JLINK_GetNumWPUnits()
T62F8 000:523.888 - 0.005ms returns 1
T62F8 000:530.139 JLINK_GetSpeed()
T62F8 000:530.159 - 0.020ms returns 2000
T62F8 000:534.382 JLINK_ReadMemU32(0xE000E004, 0x1 Items)
T62F8 000:534.408   CPU_ReadMem(4 bytes @ 0xE000E004)
T62F8 000:534.968   Data:  00 00 00 00
T62F8 000:534.979 - 0.596ms returns 1 (0x1)
T62F8 000:534.989 JLINK_Halt()
T62F8 000:534.995 - 0.005ms returns 0x00
T62F8 000:535.000 JLINK_IsHalted()
T62F8 000:535.006 - 0.005ms returns TRUE
T62F8 000:554.466 JLINK_WriteMem(0x20000000, 0x1EC Bytes, ...)
T62F8 000:554.486   Data:  00 BE 0A E0 0D 78 2D 06 68 40 08 24 40 00 00 D3 ...
T62F8 000:554.716   CPU_WriteMem(492 bytes @ 0x20000000)
T62F8 000:558.828 - 4.361ms returns 0x1EC
T62F8 000:558.873 JLINK_HasError()
T62F8 000:558.897 JLINK_WriteReg(R0, 0x08000000)
T62F8 000:558.904 - 0.023ms returns 0
T62F8 000:558.910 JLINK_WriteReg(R1, 0x00B71B00)
T62F8 000:558.915 - 0.005ms returns 0
T62F8 000:558.921 JLINK_WriteReg(R2, 0x00000001)
T62F8 000:558.927 - 0.006ms returns 0
T62F8 000:558.933 JLINK_WriteReg(R3, 0x00000000)
T62F8 000:558.938 - 0.005ms returns 0
T62F8 000:558.943 JLINK_WriteReg(R4, 0x00000000)
T62F8 000:558.948 - 0.005ms returns 0
T62F8 000:558.954 JLINK_WriteReg(R5, 0x00000000)
T62F8 000:558.959 - 0.005ms returns 0
T62F8 000:558.964 JLINK_WriteReg(R6, 0x00000000)
T62F8 000:558.969 - 0.004ms returns 0
T62F8 000:558.975 JLINK_WriteReg(R7, 0x00000000)
T62F8 000:558.980 - 0.005ms returns 0
T62F8 000:558.985 JLINK_WriteReg(R8, 0x00000000)
T62F8 000:558.990 - 0.005ms returns 0
T62F8 000:558.996 JLINK_WriteReg(R9, 0x200001E8)
T62F8 000:559.001 - 0.005ms returns 0
T62F8 000:559.006 JLINK_WriteReg(R10, 0x00000000)
T62F8 000:559.015 - 0.008ms returns 0
T62F8 000:559.021 JLINK_WriteReg(R11, 0x00000000)
T62F8 000:559.026 - 0.004ms returns 0
T62F8 000:559.031 JLINK_WriteReg(R12, 0x00000000)
T62F8 000:559.036 - 0.004ms returns 0
T62F8 000:559.042 JLINK_WriteReg(R13 (SP), 0x20001000)
T62F8 000:559.047 - 0.005ms returns 0
T62F8 000:559.053 JLINK_WriteReg(R14, 0x20000001)
T62F8 000:559.058 - 0.004ms returns 0
T62F8 000:559.068 JLINK_WriteReg(R15 (PC), 0x20000038)
T62F8 000:559.073 - 0.010ms returns 0
T62F8 000:559.079 JLINK_WriteReg(XPSR, 0x01000000)
T62F8 000:559.084 - 0.005ms returns 0
T62F8 000:559.090 JLINK_WriteReg(MSP, 0x20001000)
T62F8 000:559.095 - 0.004ms returns 0
T62F8 000:559.100 JLINK_WriteReg(PSP, 0x20001000)
T62F8 000:559.105 - 0.005ms returns 0
T62F8 000:559.111 JLINK_WriteReg(CFBP, 0x00000000)
T62F8 000:559.116 - 0.004ms returns 0
T62F8 000:559.122 JLINK_SetBPEx(Addr = 0x20000000, Type = 0xFFFFFFF2)
T62F8 000:559.132   CPU_ReadMem(2 bytes @ 0x20000000)
T62F8 000:559.642 - 0.520ms returns 0x00000001
T62F8 000:559.649 JLINK_Go()
T62F8 000:559.656   CPU_WriteMem(2 bytes @ 0x20000000)
T62F8 000:560.208   CPU_ReadMem(4 bytes @ 0xE0001000)
T62F8 000:560.745   CPU_WriteMem(4 bytes @ 0xE0001000)
T62F8 000:561.305   CPU_WriteMem(4 bytes @ 0xE0002008)
T62F8 000:561.313   CPU_WriteMem(4 bytes @ 0xE000200C)
T62F8 000:562.053   CPU_WriteMem(4 bytes @ 0xE0001004)
T62F8 000:568.956   Memory map 'after startup completion point' is active
T62F8 000:568.985 - 9.335ms 
T62F8 000:568.994 JLINK_IsHalted()
T62F8 000:572.718   CPU_ReadMem(2 bytes @ 0x20000000)
T62F8 000:573.308 - 4.313ms returns TRUE
T62F8 000:573.316 JLINK_ReadReg(R15 (PC))
T62F8 000:573.322 - 0.006ms returns 0x20000000
T62F8 000:573.337 JLINK_ClrBPEx(BPHandle = 0x00000001)
T62F8 000:573.344 - 0.006ms returns 0x00
T62F8 000:573.351 JLINK_ReadReg(R0)
T62F8 000:573.356 - 0.005ms returns 0x00000000
T62F8 000:573.707 JLINK_HasError()
T62F8 000:573.722 JLINK_WriteReg(R0, 0x08000000)
T62F8 000:573.728 - 0.006ms returns 0
T62F8 000:573.733 JLINK_WriteReg(R1, 0x00000200)
T62F8 000:573.738 - 0.005ms returns 0
T62F8 000:573.744 JLINK_WriteReg(R2, 0x000000FF)
T62F8 000:573.749 - 0.005ms returns 0
T62F8 000:573.755 JLINK_WriteReg(R3, 0x00000000)
T62F8 000:573.760 - 0.005ms returns 0
T62F8 000:573.765 JLINK_WriteReg(R4, 0x00000000)
T62F8 000:573.770 - 0.004ms returns 0
T62F8 000:573.775 JLINK_WriteReg(R5, 0x00000000)
T62F8 000:573.780 - 0.004ms returns 0
T62F8 000:573.786 JLINK_WriteReg(R6, 0x00000000)
T62F8 000:573.791 - 0.005ms returns 0
T62F8 000:573.797 JLINK_WriteReg(R7, 0x00000000)
T62F8 000:573.802 - 0.004ms returns 0
T62F8 000:573.807 JLINK_WriteReg(R8, 0x00000000)
T62F8 000:573.812 - 0.005ms returns 0
T62F8 000:573.818 JLINK_WriteReg(R9, 0x200001E8)
T62F8 000:573.823 - 0.005ms returns 0
T62F8 000:573.828 JLINK_WriteReg(R10, 0x00000000)
T62F8 000:573.833 - 0.005ms returns 0
T62F8 000:573.839 JLINK_WriteReg(R11, 0x00000000)
T62F8 000:573.843 - 0.004ms returns 0
T62F8 000:573.849 JLINK_WriteReg(R12, 0x00000000)
T62F8 000:573.854 - 0.005ms returns 0
T62F8 000:573.860 JLINK_WriteReg(R13 (SP), 0x20001000)
T62F8 000:573.865 - 0.005ms returns 0
T62F8 000:573.871 JLINK_WriteReg(R14, 0x20000001)
T62F8 000:573.876 - 0.005ms returns 0
T62F8 000:573.881 JLINK_WriteReg(R15 (PC), 0x20000020)
T62F8 000:573.886 - 0.005ms returns 0
T62F8 000:573.892 JLINK_WriteReg(XPSR, 0x01000000)
T62F8 000:573.897 - 0.005ms returns 0
T62F8 000:573.902 JLINK_WriteReg(MSP, 0x20001000)
T62F8 000:573.907 - 0.004ms returns 0
T62F8 000:573.913 JLINK_WriteReg(PSP, 0x20001000)
T62F8 000:573.917 - 0.004ms returns 0
T62F8 000:573.923 JLINK_WriteReg(CFBP, 0x00000000)
T62F8 000:573.928 - 0.005ms returns 0
T62F8 000:573.934 JLINK_SetBPEx(Addr = 0x20000000, Type = 0xFFFFFFF2)
T62F8 000:573.940 - 0.006ms returns 0x00000002
T62F8 000:573.945 JLINK_Go()
T62F8 000:573.955   CPU_ReadMem(4 bytes @ 0xE0001000)
T62F8 000:577.810 - 3.864ms 
T62F8 000:577.825 JLINK_IsHalted()
T62F8 000:581.440   CPU_ReadMem(2 bytes @ 0x20000000)
T62F8 000:582.029 - 4.203ms returns TRUE
T62F8 000:582.116 JLINK_ReadReg(R15 (PC))
T62F8 000:582.126 - 0.009ms returns 0x20000000
T62F8 000:582.135 JLINK_ClrBPEx(BPHandle = 0x00000002)
T62F8 000:582.143 - 0.008ms returns 0x00
T62F8 000:582.151 JLINK_ReadReg(R0)
T62F8 000:582.159 - 0.007ms returns 0x00000001
T62F8 000:582.167 JLINK_HasError()
T62F8 000:582.176 JLINK_WriteReg(R0, 0x08000000)
T62F8 000:582.184 - 0.008ms returns 0
T62F8 000:582.193 JLINK_WriteReg(R1, 0x00000200)
T62F8 000:582.200 - 0.007ms returns 0
T62F8 000:582.208 JLINK_WriteReg(R2, 0x000000FF)
T62F8 000:582.216 - 0.007ms returns 0
T62F8 000:582.224 JLINK_WriteReg(R3, 0x00000000)
T62F8 000:582.232 - 0.007ms returns 0
T62F8 000:582.240 JLINK_WriteReg(R4, 0x00000000)
T62F8 000:582.248 - 0.007ms returns 0
T62F8 000:582.256 JLINK_WriteReg(R5, 0x00000000)
T62F8 000:582.263 - 0.007ms returns 0
T62F8 000:582.272 JLINK_WriteReg(R6, 0x00000000)
T62F8 000:582.279 - 0.007ms returns 0
T62F8 000:582.287 JLINK_WriteReg(R7, 0x00000000)
T62F8 000:582.296 - 0.009ms returns 0
T62F8 000:582.306 JLINK_WriteReg(R8, 0x00000000)
T62F8 000:582.316 - 0.009ms returns 0
T62F8 000:582.327 JLINK_WriteReg(R9, 0x200001E8)
T62F8 000:582.337 - 0.009ms returns 0
T62F8 000:582.350 JLINK_WriteReg(R10, 0x00000000)
T62F8 000:582.365 - 0.015ms returns 0
T62F8 000:582.377 JLINK_WriteReg(R11, 0x00000000)
T62F8 000:582.387 - 0.010ms returns 0
T62F8 000:582.398 JLINK_WriteReg(R12, 0x00000000)
T62F8 000:582.409 - 0.010ms returns 0
T62F8 000:582.420 JLINK_WriteReg(R13 (SP), 0x20001000)
T62F8 000:582.432 - 0.011ms returns 0
T62F8 000:582.444 JLINK_WriteReg(R14, 0x20000001)
T62F8 000:582.455 - 0.011ms returns 0
T62F8 000:582.467 JLINK_WriteReg(R15 (PC), 0x200000F4)
T62F8 000:582.480 - 0.012ms returns 0
T62F8 000:582.495 JLINK_WriteReg(XPSR, 0x01000000)
T62F8 000:582.514 - 0.019ms returns 0
T62F8 000:582.526 JLINK_WriteReg(MSP, 0x20001000)
T62F8 000:582.537 - 0.010ms returns 0
T62F8 000:582.549 JLINK_WriteReg(PSP, 0x20001000)
T62F8 000:582.560 - 0.010ms returns 0
T62F8 000:582.570 JLINK_WriteReg(CFBP, 0x00000000)
T62F8 000:582.581 - 0.010ms returns 0
T62F8 000:582.594 JLINK_SetBPEx(Addr = 0x20000000, Type = 0xFFFFFFF2)
T62F8 000:582.605 - 0.011ms returns 0x00000003
T62F8 000:582.616 JLINK_Go()
T62F8 000:582.635   CPU_ReadMem(4 bytes @ 0xE0001000)
T62F8 000:586.715 - 4.098ms 
T62F8 000:586.749 JLINK_IsHalted()
T62F8 000:587.313 - 0.563ms returns FALSE
T62F8 000:587.334 JLINK_HasError()
T62F8 000:600.337 JLINK_IsHalted()
T62F8 000:604.129   CPU_ReadMem(2 bytes @ 0x20000000)
T62F8 000:604.641 - 4.303ms returns TRUE
T62F8 000:604.650 JLINK_ReadReg(R15 (PC))
T62F8 000:604.656 - 0.006ms returns 0x20000000
T62F8 000:604.662 JLINK_ClrBPEx(BPHandle = 0x00000003)
T62F8 000:604.667 - 0.005ms returns 0x00
T62F8 000:604.673 JLINK_ReadReg(R0)
T62F8 000:604.679 - 0.005ms returns 0x00000000
T62F8 000:605.055 JLINK_HasError()
T62F8 000:605.072 JLINK_WriteReg(R0, 0x08000200)
T62F8 000:605.078 - 0.006ms returns 0
T62F8 000:605.084 JLINK_WriteReg(R1, 0x00000200)
T62F8 000:605.089 - 0.005ms returns 0
T62F8 000:605.094 JLINK_WriteReg(R2, 0x000000FF)
T62F8 000:605.099 - 0.005ms returns 0
T62F8 000:605.105 JLINK_WriteReg(R3, 0x00000000)
T62F8 000:605.110 - 0.005ms returns 0
T62F8 000:605.115 JLINK_WriteReg(R4, 0x00000000)
T62F8 000:605.120 - 0.005ms returns 0
T62F8 000:605.126 JLINK_WriteReg(R5, 0x00000000)
T62F8 000:605.131 - 0.005ms returns 0
T62F8 000:605.136 JLINK_WriteReg(R6, 0x00000000)
T62F8 000:605.141 - 0.005ms returns 0
T62F8 000:605.147 JLINK_WriteReg(R7, 0x00000000)
T62F8 000:605.152 - 0.005ms returns 0
T62F8 000:605.157 JLINK_WriteReg(R8, 0x00000000)
T62F8 000:605.162 - 0.005ms returns 0
T62F8 000:605.168 JLINK_WriteReg(R9, 0x200001E8)
T62F8 000:605.173 - 0.005ms returns 0
T62F8 000:605.178 JLINK_WriteReg(R10, 0x00000000)
T62F8 000:605.184 - 0.005ms returns 0
T62F8 000:605.189 JLINK_WriteReg(R11, 0x00000000)
T62F8 000:605.194 - 0.004ms returns 0
T62F8 000:605.200 JLINK_WriteReg(R12, 0x00000000)
T62F8 000:605.205 - 0.005ms returns 0
T62F8 000:605.215 JLINK_WriteReg(R13 (SP), 0x20001000)
T62F8 000:605.221 - 0.005ms returns 0
T62F8 000:605.226 JLINK_WriteReg(R14, 0x20000001)
T62F8 000:605.231 - 0.005ms returns 0
T62F8 000:605.237 JLINK_WriteReg(R15 (PC), 0x20000020)
T62F8 000:605.242 - 0.005ms returns 0
T62F8 000:605.248 JLINK_WriteReg(XPSR, 0x01000000)
T62F8 000:605.253 - 0.005ms returns 0
T62F8 000:605.258 JLINK_WriteReg(MSP, 0x20001000)
T62F8 000:605.263 - 0.004ms returns 0
T62F8 000:605.269 JLINK_WriteReg(PSP, 0x20001000)
T62F8 000:605.274 - 0.005ms returns 0
T62F8 000:605.279 JLINK_WriteReg(CFBP, 0x00000000)
T62F8 000:605.284 - 0.005ms returns 0
T62F8 000:605.290 JLINK_SetBPEx(Addr = 0x20000000, Type = 0xFFFFFFF2)
T62F8 000:605.296 - 0.005ms returns 0x00000004
T62F8 000:605.302 JLINK_Go()
T62F8 000:605.312   CPU_ReadMem(4 bytes @ 0xE0001000)
T62F8 000:609.218 - 3.916ms 
T62F8 000:609.289 JLINK_IsHalted()
T62F8 000:612.884   CPU_ReadMem(2 bytes @ 0x20000000)
T62F8 000:613.359 - 4.069ms returns TRUE
T62F8 000:613.368 JLINK_ReadReg(R15 (PC))
T62F8 000:613.375 - 0.006ms returns 0x20000000
T62F8 000:613.381 JLINK_ClrBPEx(BPHandle = 0x00000004)
T62F8 000:613.386 - 0.005ms returns 0x00
T62F8 000:613.392 JLINK_ReadReg(R0)
T62F8 000:613.397 - 0.005ms returns 0x00000001
T62F8 000:613.403 JLINK_HasError()
T62F8 000:613.409 JLINK_WriteReg(R0, 0x08000200)
T62F8 000:613.414 - 0.005ms returns 0
T62F8 000:613.420 JLINK_WriteReg(R1, 0x00000200)
T62F8 000:613.425 - 0.005ms returns 0
T62F8 000:613.431 JLINK_WriteReg(R2, 0x000000FF)
T62F8 000:613.436 - 0.005ms returns 0
T62F8 000:613.441 JLINK_WriteReg(R3, 0x00000000)
T62F8 000:613.446 - 0.005ms returns 0
T62F8 000:613.452 JLINK_WriteReg(R4, 0x00000000)
T62F8 000:613.457 - 0.004ms returns 0
T62F8 000:613.462 JLINK_WriteReg(R5, 0x00000000)
T62F8 000:613.467 - 0.004ms returns 0
T62F8 000:613.473 JLINK_WriteReg(R6, 0x00000000)
T62F8 000:613.478 - 0.005ms returns 0
T62F8 000:613.483 JLINK_WriteReg(R7, 0x00000000)
T62F8 000:613.488 - 0.005ms returns 0
T62F8 000:613.494 JLINK_WriteReg(R8, 0x00000000)
T62F8 000:613.499 - 0.005ms returns 0
T62F8 000:613.504 JLINK_WriteReg(R9, 0x200001E8)
T62F8 000:613.509 - 0.005ms returns 0
T62F8 000:613.515 JLINK_WriteReg(R10, 0x00000000)
T62F8 000:613.520 - 0.005ms returns 0
T62F8 000:613.525 JLINK_WriteReg(R11, 0x00000000)
T62F8 000:613.530 - 0.005ms returns 0
T62F8 000:613.535 JLINK_WriteReg(R12, 0x00000000)
T62F8 000:613.540 - 0.004ms returns 0
T62F8 000:613.546 JLINK_WriteReg(R13 (SP), 0x20001000)
T62F8 000:613.551 - 0.005ms returns 0
T62F8 000:613.557 JLINK_WriteReg(R14, 0x20000001)
T62F8 000:613.562 - 0.005ms returns 0
T62F8 000:613.567 JLINK_WriteReg(R15 (PC), 0x200000F4)
T62F8 000:613.572 - 0.005ms returns 0
T62F8 000:613.578 JLINK_WriteReg(XPSR, 0x01000000)
T62F8 000:613.583 - 0.005ms returns 0
T62F8 000:613.589 JLINK_WriteReg(MSP, 0x20001000)
T62F8 000:613.593 - 0.004ms returns 0
T62F8 000:613.599 JLINK_WriteReg(PSP, 0x20001000)
T62F8 000:613.604 - 0.004ms returns 0
T62F8 000:613.609 JLINK_WriteReg(CFBP, 0x00000000)
T62F8 000:613.614 - 0.005ms returns 0
T62F8 000:613.620 JLINK_SetBPEx(Addr = 0x20000000, Type = 0xFFFFFFF2)
T62F8 000:613.625 - 0.005ms returns 0x00000005
T62F8 000:613.631 JLINK_Go()
T62F8 000:613.639   CPU_ReadMem(4 bytes @ 0xE0001000)
T62F8 000:617.527 - 3.895ms 
T62F8 000:617.547 JLINK_IsHalted()
T62F8 000:618.061 - 0.513ms returns FALSE
T62F8 000:618.077 JLINK_HasError()
T62F8 000:621.575 JLINK_IsHalted()
T62F8 000:625.219   CPU_ReadMem(2 bytes @ 0x20000000)
T62F8 000:625.695 - 4.120ms returns TRUE
T62F8 000:625.704 JLINK_ReadReg(R15 (PC))
T62F8 000:625.710 - 0.006ms returns 0x20000000
T62F8 000:625.717 JLINK_ClrBPEx(BPHandle = 0x00000005)
T62F8 000:625.723 - 0.006ms returns 0x00
T62F8 000:625.730 JLINK_ReadReg(R0)
T62F8 000:625.736 - 0.005ms returns 0x00000000
T62F8 000:626.089 JLINK_HasError()
T62F8 000:626.104 JLINK_WriteReg(R0, 0x08000400)
T62F8 000:626.110 - 0.006ms returns 0
T62F8 000:626.117 JLINK_WriteReg(R1, 0x00000200)
T62F8 000:626.123 - 0.005ms returns 0
T62F8 000:626.136 JLINK_WriteReg(R2, 0x000000FF)
T62F8 000:626.142 - 0.005ms returns 0
T62F8 000:626.148 JLINK_WriteReg(R3, 0x00000000)
T62F8 000:626.154 - 0.005ms returns 0
T62F8 000:626.161 JLINK_WriteReg(R4, 0x00000000)
T62F8 000:626.166 - 0.005ms returns 0
T62F8 000:626.173 JLINK_WriteReg(R5, 0x00000000)
T62F8 000:626.178 - 0.006ms returns 0
T62F8 000:626.185 JLINK_WriteReg(R6, 0x00000000)
T62F8 000:626.190 - 0.005ms returns 0
T62F8 000:626.197 JLINK_WriteReg(R7, 0x00000000)
T62F8 000:626.205 - 0.008ms returns 0
T62F8 000:626.212 JLINK_WriteReg(R8, 0x00000000)
T62F8 000:626.217 - 0.005ms returns 0
T62F8 000:626.223 JLINK_WriteReg(R9, 0x200001E8)
T62F8 000:626.229 - 0.005ms returns 0
T62F8 000:626.235 JLINK_WriteReg(R10, 0x00000000)
T62F8 000:626.240 - 0.005ms returns 0
T62F8 000:626.247 JLINK_WriteReg(R11, 0x00000000)
T62F8 000:626.252 - 0.005ms returns 0
T62F8 000:626.258 JLINK_WriteReg(R12, 0x00000000)
T62F8 000:626.264 - 0.005ms returns 0
T62F8 000:626.270 JLINK_WriteReg(R13 (SP), 0x20001000)
T62F8 000:626.276 - 0.006ms returns 0
T62F8 000:626.282 JLINK_WriteReg(R14, 0x20000001)
T62F8 000:626.288 - 0.005ms returns 0
T62F8 000:626.294 JLINK_WriteReg(R15 (PC), 0x20000020)
T62F8 000:626.300 - 0.005ms returns 0
T62F8 000:626.306 JLINK_WriteReg(XPSR, 0x01000000)
T62F8 000:626.311 - 0.005ms returns 0
T62F8 000:626.318 JLINK_WriteReg(MSP, 0x20001000)
T62F8 000:626.323 - 0.005ms returns 0
T62F8 000:626.329 JLINK_WriteReg(PSP, 0x20001000)
T62F8 000:626.335 - 0.005ms returns 0
T62F8 000:626.341 JLINK_WriteReg(CFBP, 0x00000000)
T62F8 000:626.347 - 0.005ms returns 0
T62F8 000:626.353 JLINK_SetBPEx(Addr = 0x20000000, Type = 0xFFFFFFF2)
T62F8 000:626.360 - 0.006ms returns 0x00000006
T62F8 000:626.366 JLINK_Go()
T62F8 000:626.376   CPU_ReadMem(4 bytes @ 0xE0001000)
T62F8 000:630.308 - 3.942ms 
T62F8 000:630.318 JLINK_IsHalted()
T62F8 000:633.962   CPU_ReadMem(2 bytes @ 0x20000000)
T62F8 000:634.600 - 4.280ms returns TRUE
T62F8 000:634.696 JLINK_ReadReg(R15 (PC))
T62F8 000:634.706 - 0.009ms returns 0x20000000
T62F8 000:634.715 JLINK_ClrBPEx(BPHandle = 0x00000006)
T62F8 000:634.723 - 0.007ms returns 0x00
T62F8 000:634.732 JLINK_ReadReg(R0)
T62F8 000:634.739 - 0.007ms returns 0x00000001
T62F8 000:634.747 JLINK_HasError()
T62F8 000:634.756 JLINK_WriteReg(R0, 0x08000400)
T62F8 000:634.765 - 0.008ms returns 0
T62F8 000:634.773 JLINK_WriteReg(R1, 0x00000200)
T62F8 000:634.780 - 0.007ms returns 0
T62F8 000:634.788 JLINK_WriteReg(R2, 0x000000FF)
T62F8 000:634.796 - 0.007ms returns 0
T62F8 000:634.804 JLINK_WriteReg(R3, 0x00000000)
T62F8 000:634.811 - 0.007ms returns 0
T62F8 000:634.819 JLINK_WriteReg(R4, 0x00000000)
T62F8 000:634.826 - 0.007ms returns 0
T62F8 000:634.834 JLINK_WriteReg(R5, 0x00000000)
T62F8 000:634.841 - 0.007ms returns 0
T62F8 000:634.849 JLINK_WriteReg(R6, 0x00000000)
T62F8 000:634.856 - 0.007ms returns 0
T62F8 000:634.864 JLINK_WriteReg(R7, 0x00000000)
T62F8 000:634.871 - 0.007ms returns 0
T62F8 000:634.879 JLINK_WriteReg(R8, 0x00000000)
T62F8 000:634.887 - 0.007ms returns 0
T62F8 000:634.895 JLINK_WriteReg(R9, 0x200001E8)
T62F8 000:634.902 - 0.007ms returns 0
T62F8 000:634.910 JLINK_WriteReg(R10, 0x00000000)
T62F8 000:634.917 - 0.007ms returns 0
T62F8 000:634.925 JLINK_WriteReg(R11, 0x00000000)
T62F8 000:634.932 - 0.007ms returns 0
T62F8 000:634.940 JLINK_WriteReg(R12, 0x00000000)
T62F8 000:634.947 - 0.007ms returns 0
T62F8 000:634.956 JLINK_WriteReg(R13 (SP), 0x20001000)
T62F8 000:634.963 - 0.007ms returns 0
T62F8 000:634.971 JLINK_WriteReg(R14, 0x20000001)
T62F8 000:634.978 - 0.007ms returns 0
T62F8 000:634.986 JLINK_WriteReg(R15 (PC), 0x200000F4)
T62F8 000:634.994 - 0.007ms returns 0
T62F8 000:635.002 JLINK_WriteReg(XPSR, 0x01000000)
T62F8 000:635.009 - 0.007ms returns 0
T62F8 000:635.017 JLINK_WriteReg(MSP, 0x20001000)
T62F8 000:635.025 - 0.007ms returns 0
T62F8 000:635.034 JLINK_WriteReg(PSP, 0x20001000)
T62F8 000:635.041 - 0.006ms returns 0
T62F8 000:635.048 JLINK_WriteReg(CFBP, 0x00000000)
T62F8 000:635.060 - 0.011ms returns 0
T62F8 000:635.070 JLINK_SetBPEx(Addr = 0x20000000, Type = 0xFFFFFFF2)
T62F8 000:635.078 - 0.008ms returns 0x00000007
T62F8 000:635.086 JLINK_Go()
T62F8 000:635.099   CPU_ReadMem(4 bytes @ 0xE0001000)
T62F8 000:638.999 - 3.912ms 
T62F8 000:639.019 JLINK_IsHalted()
T62F8 000:639.606 - 0.587ms returns FALSE
T62F8 000:639.614 JLINK_HasError()
T62F8 000:642.147 JLINK_IsHalted()
T62F8 000:645.726   CPU_ReadMem(2 bytes @ 0x20000000)
T62F8 000:646.313 - 4.165ms returns TRUE
T62F8 000:646.321 JLINK_ReadReg(R15 (PC))
T62F8 000:646.327 - 0.005ms returns 0x20000000
T62F8 000:646.332 JLINK_ClrBPEx(BPHandle = 0x00000007)
T62F8 000:646.338 - 0.005ms returns 0x00
T62F8 000:646.343 JLINK_ReadReg(R0)
T62F8 000:646.348 - 0.004ms returns 0x00000000
T62F8 000:646.717 JLINK_HasError()
T62F8 000:646.732 JLINK_WriteReg(R0, 0x08000600)
T62F8 000:646.740 - 0.007ms returns 0
T62F8 000:646.747 JLINK_WriteReg(R1, 0x00000200)
T62F8 000:646.753 - 0.006ms returns 0
T62F8 000:646.760 JLINK_WriteReg(R2, 0x000000FF)
T62F8 000:646.765 - 0.006ms returns 0
T62F8 000:646.772 JLINK_WriteReg(R3, 0x00000000)
T62F8 000:646.779 - 0.006ms returns 0
T62F8 000:646.786 JLINK_WriteReg(R4, 0x00000000)
T62F8 000:646.793 - 0.006ms returns 0
T62F8 000:646.801 JLINK_WriteReg(R5, 0x00000000)
T62F8 000:646.807 - 0.006ms returns 0
T62F8 000:646.828 JLINK_WriteReg(R6, 0x00000000)
T62F8 000:646.834 - 0.006ms returns 0
T62F8 000:646.855 JLINK_WriteReg(R7, 0x00000000)
T62F8 000:646.862 - 0.007ms returns 0
T62F8 000:646.870 JLINK_WriteReg(R8, 0x00000000)
T62F8 000:646.877 - 0.007ms returns 0
T62F8 000:646.885 JLINK_WriteReg(R9, 0x200001E8)
T62F8 000:646.892 - 0.007ms returns 0
T62F8 000:646.899 JLINK_WriteReg(R10, 0x00000000)
T62F8 000:646.907 - 0.007ms returns 0
T62F8 000:646.915 JLINK_WriteReg(R11, 0x00000000)
T62F8 000:646.921 - 0.006ms returns 0
T62F8 000:646.929 JLINK_WriteReg(R12, 0x00000000)
T62F8 000:646.936 - 0.007ms returns 0
T62F8 000:646.945 JLINK_WriteReg(R13 (SP), 0x20001000)
T62F8 000:646.952 - 0.007ms returns 0
T62F8 000:646.960 JLINK_WriteReg(R14, 0x20000001)
T62F8 000:646.967 - 0.007ms returns 0
T62F8 000:646.975 JLINK_WriteReg(R15 (PC), 0x20000020)
T62F8 000:646.982 - 0.007ms returns 0
T62F8 000:646.991 JLINK_WriteReg(XPSR, 0x01000000)
T62F8 000:646.998 - 0.007ms returns 0
T62F8 000:647.006 JLINK_WriteReg(MSP, 0x20001000)
T62F8 000:647.015 - 0.008ms returns 0
T62F8 000:647.023 JLINK_WriteReg(PSP, 0x20001000)
T62F8 000:647.036 - 0.012ms returns 0
T62F8 000:647.043 JLINK_WriteReg(CFBP, 0x00000000)
T62F8 000:647.051 - 0.007ms returns 0
T62F8 000:647.058 JLINK_SetBPEx(Addr = 0x20000000, Type = 0xFFFFFFF2)
T62F8 000:647.066 - 0.008ms returns 0x00000008
T62F8 000:647.078 JLINK_Go()
T62F8 000:647.090   CPU_ReadMem(4 bytes @ 0xE0001000)
T62F8 000:651.025 - 3.946ms 
T62F8 000:651.050 JLINK_IsHalted()
T62F8 000:654.668   CPU_ReadMem(2 bytes @ 0x20000000)
T62F8 000:655.221 - 4.170ms returns TRUE
T62F8 000:655.229 JLINK_ReadReg(R15 (PC))
T62F8 000:655.235 - 0.005ms returns 0x20000000
T62F8 000:655.240 JLINK_ClrBPEx(BPHandle = 0x00000008)
T62F8 000:655.245 - 0.005ms returns 0x00
T62F8 000:655.251 JLINK_ReadReg(R0)
T62F8 000:655.256 - 0.004ms returns 0x00000001
T62F8 000:655.262 JLINK_HasError()
T62F8 000:655.268 JLINK_WriteReg(R0, 0x08000600)
T62F8 000:655.273 - 0.005ms returns 0
T62F8 000:655.278 JLINK_WriteReg(R1, 0x00000200)
T62F8 000:655.283 - 0.005ms returns 0
T62F8 000:655.289 JLINK_WriteReg(R2, 0x000000FF)
T62F8 000:655.293 - 0.004ms returns 0
T62F8 000:655.299 JLINK_WriteReg(R3, 0x00000000)
T62F8 000:655.303 - 0.004ms returns 0
T62F8 000:655.309 JLINK_WriteReg(R4, 0x00000000)
T62F8 000:655.314 - 0.004ms returns 0
T62F8 000:655.319 JLINK_WriteReg(R5, 0x00000000)
T62F8 000:655.324 - 0.004ms returns 0
T62F8 000:655.329 JLINK_WriteReg(R6, 0x00000000)
T62F8 000:655.333 - 0.004ms returns 0
T62F8 000:655.339 JLINK_WriteReg(R7, 0x00000000)
T62F8 000:655.343 - 0.004ms returns 0
T62F8 000:655.349 JLINK_WriteReg(R8, 0x00000000)
T62F8 000:655.354 - 0.005ms returns 0
T62F8 000:655.399 JLINK_WriteReg(R9, 0x200001E8)
T62F8 000:655.405 - 0.006ms returns 0
T62F8 000:655.410 JLINK_WriteReg(R10, 0x00000000)
T62F8 000:655.415 - 0.004ms returns 0
T62F8 000:655.420 JLINK_WriteReg(R11, 0x00000000)
T62F8 000:655.425 - 0.004ms returns 0
T62F8 000:655.430 JLINK_WriteReg(R12, 0x00000000)
T62F8 000:655.435 - 0.004ms returns 0
T62F8 000:655.441 JLINK_WriteReg(R13 (SP), 0x20001000)
T62F8 000:655.446 - 0.005ms returns 0
T62F8 000:655.451 JLINK_WriteReg(R14, 0x20000001)
T62F8 000:655.455 - 0.004ms returns 0
T62F8 000:655.461 JLINK_WriteReg(R15 (PC), 0x200000F4)
T62F8 000:655.466 - 0.004ms returns 0
T62F8 000:655.471 JLINK_WriteReg(XPSR, 0x01000000)
T62F8 000:655.476 - 0.005ms returns 0
T62F8 000:655.481 JLINK_WriteReg(MSP, 0x20001000)
T62F8 000:655.486 - 0.004ms returns 0
T62F8 000:655.491 JLINK_WriteReg(PSP, 0x20001000)
T62F8 000:655.496 - 0.004ms returns 0
T62F8 000:655.501 JLINK_WriteReg(CFBP, 0x00000000)
T62F8 000:655.506 - 0.004ms returns 0
T62F8 000:655.512 JLINK_SetBPEx(Addr = 0x20000000, Type = 0xFFFFFFF2)
T62F8 000:655.517 - 0.005ms returns 0x00000009
T62F8 000:655.522 JLINK_Go()
T62F8 000:655.531   CPU_ReadMem(4 bytes @ 0xE0001000)
T62F8 000:659.389 - 3.865ms 
T62F8 000:659.402 JLINK_IsHalted()
T62F8 000:659.900 - 0.498ms returns FALSE
T62F8 000:659.911 JLINK_HasError()
T62F8 000:661.470 JLINK_IsHalted()
T62F8 000:665.139   CPU_ReadMem(2 bytes @ 0x20000000)
T62F8 000:665.627 - 4.155ms returns TRUE
T62F8 000:665.645 JLINK_ReadReg(R15 (PC))
T62F8 000:665.654 - 0.008ms returns 0x20000000
T62F8 000:665.661 JLINK_ClrBPEx(BPHandle = 0x00000009)
T62F8 000:665.668 - 0.006ms returns 0x00
T62F8 000:665.676 JLINK_ReadReg(R0)
T62F8 000:665.682 - 0.006ms returns 0x00000000
T62F8 000:666.198 JLINK_HasError()
T62F8 000:666.220 JLINK_WriteReg(R0, 0x08000800)
T62F8 000:666.228 - 0.008ms returns 0
T62F8 000:666.236 JLINK_WriteReg(R1, 0x00000200)
T62F8 000:666.242 - 0.006ms returns 0
T62F8 000:666.249 JLINK_WriteReg(R2, 0x000000FF)
T62F8 000:666.256 - 0.006ms returns 0
T62F8 000:666.264 JLINK_WriteReg(R3, 0x00000000)
T62F8 000:666.269 - 0.005ms returns 0
T62F8 000:666.275 JLINK_WriteReg(R4, 0x00000000)
T62F8 000:666.280 - 0.005ms returns 0
T62F8 000:666.285 JLINK_WriteReg(R5, 0x00000000)
T62F8 000:666.290 - 0.005ms returns 0
T62F8 000:666.296 JLINK_WriteReg(R6, 0x00000000)
T62F8 000:666.304 - 0.007ms returns 0
T62F8 000:666.309 JLINK_WriteReg(R7, 0x00000000)
T62F8 000:666.313 - 0.004ms returns 0
T62F8 000:666.319 JLINK_WriteReg(R8, 0x00000000)
T62F8 000:666.323 - 0.004ms returns 0
T62F8 000:666.329 JLINK_WriteReg(R9, 0x200001E8)
T62F8 000:666.334 - 0.005ms returns 0
T62F8 000:666.339 JLINK_WriteReg(R10, 0x00000000)
T62F8 000:666.344 - 0.004ms returns 0
T62F8 000:666.349 JLINK_WriteReg(R11, 0x00000000)
T62F8 000:666.354 - 0.004ms returns 0
T62F8 000:666.359 JLINK_WriteReg(R12, 0x00000000)
T62F8 000:666.364 - 0.004ms returns 0
T62F8 000:666.369 JLINK_WriteReg(R13 (SP), 0x20001000)
T62F8 000:666.375 - 0.005ms returns 0
T62F8 000:666.380 JLINK_WriteReg(R14, 0x20000001)
T62F8 000:666.385 - 0.004ms returns 0
T62F8 000:666.390 JLINK_WriteReg(R15 (PC), 0x20000020)
T62F8 000:666.423 - 0.005ms returns 0
T62F8 000:666.429 JLINK_WriteReg(XPSR, 0x01000000)
T62F8 000:666.434 - 0.005ms returns 0
T62F8 000:666.439 JLINK_WriteReg(MSP, 0x20001000)
T62F8 000:666.444 - 0.004ms returns 0
T62F8 000:666.449 JLINK_WriteReg(PSP, 0x20001000)
T62F8 000:666.453 - 0.004ms returns 0
T62F8 000:666.459 JLINK_WriteReg(CFBP, 0x00000000)
T62F8 000:666.463 - 0.004ms returns 0
T62F8 000:666.469 JLINK_SetBPEx(Addr = 0x20000000, Type = 0xFFFFFFF2)
T62F8 000:666.475 - 0.005ms returns 0x0000000A
T62F8 000:666.480 JLINK_Go()
T62F8 000:666.490   CPU_ReadMem(4 bytes @ 0xE0001000)
T62F8 000:670.452 - 3.971ms 
T62F8 000:670.471 JLINK_IsHalted()
T62F8 000:674.188   CPU_ReadMem(2 bytes @ 0x20000000)
T62F8 000:674.744 - 4.274ms returns TRUE
T62F8 000:674.755 JLINK_ReadReg(R15 (PC))
T62F8 000:674.760 - 0.006ms returns 0x20000000
T62F8 000:674.767 JLINK_ClrBPEx(BPHandle = 0x0000000A)
T62F8 000:674.777 - 0.010ms returns 0x00
T62F8 000:674.785 JLINK_ReadReg(R0)
T62F8 000:674.790 - 0.005ms returns 0x00000001
T62F8 000:674.796 JLINK_HasError()
T62F8 000:674.802 JLINK_WriteReg(R0, 0x08000800)
T62F8 000:674.807 - 0.005ms returns 0
T62F8 000:674.813 JLINK_WriteReg(R1, 0x00000200)
T62F8 000:674.818 - 0.005ms returns 0
T62F8 000:674.823 JLINK_WriteReg(R2, 0x000000FF)
T62F8 000:674.828 - 0.004ms returns 0
T62F8 000:674.834 JLINK_WriteReg(R3, 0x00000000)
T62F8 000:674.839 - 0.004ms returns 0
T62F8 000:674.844 JLINK_WriteReg(R4, 0x00000000)
T62F8 000:674.849 - 0.004ms returns 0
T62F8 000:674.855 JLINK_WriteReg(R5, 0x00000000)
T62F8 000:674.860 - 0.004ms returns 0
T62F8 000:674.865 JLINK_WriteReg(R6, 0x00000000)
T62F8 000:674.870 - 0.004ms returns 0
T62F8 000:674.876 JLINK_WriteReg(R7, 0x00000000)
T62F8 000:674.880 - 0.004ms returns 0
T62F8 000:674.885 JLINK_WriteReg(R8, 0x00000000)
T62F8 000:674.890 - 0.005ms returns 0
T62F8 000:674.896 JLINK_WriteReg(R9, 0x200001E8)
T62F8 000:674.901 - 0.004ms returns 0
T62F8 000:674.906 JLINK_WriteReg(R10, 0x00000000)
T62F8 000:674.911 - 0.004ms returns 0
T62F8 000:674.916 JLINK_WriteReg(R11, 0x00000000)
T62F8 000:674.921 - 0.004ms returns 0
T62F8 000:674.926 JLINK_WriteReg(R12, 0x00000000)
T62F8 000:674.930 - 0.004ms returns 0
T62F8 000:674.936 JLINK_WriteReg(R13 (SP), 0x20001000)
T62F8 000:674.941 - 0.005ms returns 0
T62F8 000:674.946 JLINK_WriteReg(R14, 0x20000001)
T62F8 000:674.951 - 0.005ms returns 0
T62F8 000:674.957 JLINK_WriteReg(R15 (PC), 0x200000F4)
T62F8 000:674.961 - 0.004ms returns 0
T62F8 000:674.967 JLINK_WriteReg(XPSR, 0x01000000)
T62F8 000:674.972 - 0.004ms returns 0
T62F8 000:674.978 JLINK_WriteReg(MSP, 0x20001000)
T62F8 000:674.983 - 0.004ms returns 0
T62F8 000:674.989 JLINK_WriteReg(PSP, 0x20001000)
T62F8 000:674.994 - 0.005ms returns 0
T62F8 000:675.000 JLINK_WriteReg(CFBP, 0x00000000)
T62F8 000:675.005 - 0.005ms returns 0
T62F8 000:675.011 JLINK_SetBPEx(Addr = 0x20000000, Type = 0xFFFFFFF2)
T62F8 000:675.017 - 0.006ms returns 0x0000000B
T62F8 000:675.022 JLINK_Go()
T62F8 000:675.031   CPU_ReadMem(4 bytes @ 0xE0001000)
T62F8 000:678.933 - 3.910ms 
T62F8 000:678.958 JLINK_IsHalted()
T62F8 000:679.563 - 0.605ms returns FALSE
T62F8 000:679.581 JLINK_HasError()
T62F8 000:681.398 JLINK_IsHalted()
T62F8 000:685.174   CPU_ReadMem(2 bytes @ 0x20000000)
T62F8 000:685.695 - 4.296ms returns TRUE
T62F8 000:685.774 JLINK_ReadReg(R15 (PC))
T62F8 000:685.782 - 0.007ms returns 0x20000000
T62F8 000:685.787 JLINK_ClrBPEx(BPHandle = 0x0000000B)
T62F8 000:685.793 - 0.005ms returns 0x00
T62F8 000:685.799 JLINK_ReadReg(R0)
T62F8 000:685.804 - 0.005ms returns 0x00000000
T62F8 000:686.189 JLINK_HasError()
T62F8 000:686.203 JLINK_WriteReg(R0, 0x08000A00)
T62F8 000:686.209 - 0.006ms returns 0
T62F8 000:686.214 JLINK_WriteReg(R1, 0x00000200)
T62F8 000:686.219 - 0.004ms returns 0
T62F8 000:686.224 JLINK_WriteReg(R2, 0x000000FF)
T62F8 000:686.229 - 0.005ms returns 0
T62F8 000:686.235 JLINK_WriteReg(R3, 0x00000000)
T62F8 000:686.240 - 0.004ms returns 0
T62F8 000:686.245 JLINK_WriteReg(R4, 0x00000000)
T62F8 000:686.250 - 0.004ms returns 0
T62F8 000:686.255 JLINK_WriteReg(R5, 0x00000000)
T62F8 000:686.260 - 0.004ms returns 0
T62F8 000:686.265 JLINK_WriteReg(R6, 0x00000000)
T62F8 000:686.270 - 0.004ms returns 0
T62F8 000:686.275 JLINK_WriteReg(R7, 0x00000000)
T62F8 000:686.279 - 0.004ms returns 0
T62F8 000:686.285 JLINK_WriteReg(R8, 0x00000000)
T62F8 000:686.289 - 0.004ms returns 0
T62F8 000:686.295 JLINK_WriteReg(R9, 0x200001E8)
T62F8 000:686.300 - 0.005ms returns 0
T62F8 000:686.305 JLINK_WriteReg(R10, 0x00000000)
T62F8 000:686.309 - 0.004ms returns 0
T62F8 000:686.315 JLINK_WriteReg(R11, 0x00000000)
T62F8 000:686.319 - 0.004ms returns 0
T62F8 000:686.324 JLINK_WriteReg(R12, 0x00000000)
T62F8 000:686.329 - 0.004ms returns 0
T62F8 000:686.335 JLINK_WriteReg(R13 (SP), 0x20001000)
T62F8 000:686.340 - 0.005ms returns 0
T62F8 000:686.345 JLINK_WriteReg(R14, 0x20000001)
T62F8 000:686.350 - 0.004ms returns 0
T62F8 000:686.360 JLINK_WriteReg(R15 (PC), 0x20000020)
T62F8 000:686.365 - 0.005ms returns 0
T62F8 000:686.370 JLINK_WriteReg(XPSR, 0x01000000)
T62F8 000:686.375 - 0.004ms returns 0
T62F8 000:686.380 JLINK_WriteReg(MSP, 0x20001000)
T62F8 000:686.385 - 0.004ms returns 0
T62F8 000:686.390 JLINK_WriteReg(PSP, 0x20001000)
T62F8 000:686.395 - 0.004ms returns 0
T62F8 000:686.400 JLINK_WriteReg(CFBP, 0x00000000)
T62F8 000:686.405 - 0.004ms returns 0
T62F8 000:686.411 JLINK_SetBPEx(Addr = 0x20000000, Type = 0xFFFFFFF2)
T62F8 000:686.416 - 0.005ms returns 0x0000000C
T62F8 000:686.421 JLINK_Go()
T62F8 000:686.432   CPU_ReadMem(4 bytes @ 0xE0001000)
T62F8 000:690.454 - 4.031ms 
T62F8 000:690.468 JLINK_IsHalted()
T62F8 000:694.368   CPU_ReadMem(2 bytes @ 0x20000000)
T62F8 000:694.947 - 4.478ms returns TRUE
T62F8 000:694.963 JLINK_ReadReg(R15 (PC))
T62F8 000:694.969 - 0.006ms returns 0x20000000
T62F8 000:694.975 JLINK_ClrBPEx(BPHandle = 0x0000000C)
T62F8 000:694.980 - 0.005ms returns 0x00
T62F8 000:694.986 JLINK_ReadReg(R0)
T62F8 000:694.992 - 0.005ms returns 0x00000001
T62F8 000:694.998 JLINK_HasError()
T62F8 000:695.005 JLINK_WriteReg(R0, 0x08000A00)
T62F8 000:695.010 - 0.005ms returns 0
T62F8 000:695.016 JLINK_WriteReg(R1, 0x00000200)
T62F8 000:695.021 - 0.005ms returns 0
T62F8 000:695.027 JLINK_WriteReg(R2, 0x000000FF)
T62F8 000:695.032 - 0.005ms returns 0
T62F8 000:695.037 JLINK_WriteReg(R3, 0x00000000)
T62F8 000:695.042 - 0.004ms returns 0
T62F8 000:695.048 JLINK_WriteReg(R4, 0x00000000)
T62F8 000:695.053 - 0.004ms returns 0
T62F8 000:695.058 JLINK_WriteReg(R5, 0x00000000)
T62F8 000:695.063 - 0.004ms returns 0
T62F8 000:695.069 JLINK_WriteReg(R6, 0x00000000)
T62F8 000:695.074 - 0.005ms returns 0
T62F8 000:695.080 JLINK_WriteReg(R7, 0x00000000)
T62F8 000:695.085 - 0.005ms returns 0
T62F8 000:695.090 JLINK_WriteReg(R8, 0x00000000)
T62F8 000:695.095 - 0.005ms returns 0
T62F8 000:695.101 JLINK_WriteReg(R9, 0x200001E8)
T62F8 000:695.106 - 0.005ms returns 0
T62F8 000:695.111 JLINK_WriteReg(R10, 0x00000000)
T62F8 000:695.116 - 0.005ms returns 0
T62F8 000:695.122 JLINK_WriteReg(R11, 0x00000000)
T62F8 000:695.127 - 0.005ms returns 0
T62F8 000:695.132 JLINK_WriteReg(R12, 0x00000000)
T62F8 000:695.138 - 0.005ms returns 0
T62F8 000:695.143 JLINK_WriteReg(R13 (SP), 0x20001000)
T62F8 000:695.148 - 0.005ms returns 0
T62F8 000:695.154 JLINK_WriteReg(R14, 0x20000001)
T62F8 000:695.159 - 0.005ms returns 0
T62F8 000:695.165 JLINK_WriteReg(R15 (PC), 0x200000F4)
T62F8 000:695.170 - 0.005ms returns 0
T62F8 000:695.175 JLINK_WriteReg(XPSR, 0x01000000)
T62F8 000:695.180 - 0.005ms returns 0
T62F8 000:695.186 JLINK_WriteReg(MSP, 0x20001000)
T62F8 000:695.191 - 0.005ms returns 0
T62F8 000:695.196 JLINK_WriteReg(PSP, 0x20001000)
T62F8 000:695.201 - 0.005ms returns 0
T62F8 000:695.207 JLINK_WriteReg(CFBP, 0x00000000)
T62F8 000:695.212 - 0.005ms returns 0
T62F8 000:695.218 JLINK_SetBPEx(Addr = 0x20000000, Type = 0xFFFFFFF2)
T62F8 000:695.223 - 0.005ms returns 0x0000000D
T62F8 000:695.229 JLINK_Go()
T62F8 000:695.238   CPU_ReadMem(4 bytes @ 0xE0001000)
T62F8 000:699.133 - 3.903ms 
T62F8 000:699.150 JLINK_IsHalted()
T62F8 000:699.633 - 0.483ms returns FALSE
T62F8 000:699.654 JLINK_HasError()
T62F8 000:702.046 JLINK_IsHalted()
T62F8 000:705.649   CPU_ReadMem(2 bytes @ 0x20000000)
T62F8 000:706.227 - 4.180ms returns TRUE
T62F8 000:706.245 JLINK_ReadReg(R15 (PC))
T62F8 000:706.252 - 0.006ms returns 0x20000000
T62F8 000:706.258 JLINK_ClrBPEx(BPHandle = 0x0000000D)
T62F8 000:706.263 - 0.005ms returns 0x00
T62F8 000:706.269 JLINK_ReadReg(R0)
T62F8 000:706.274 - 0.005ms returns 0x00000000
T62F8 000:706.660 JLINK_HasError()
T62F8 000:706.673 JLINK_WriteReg(R0, 0x08000C00)
T62F8 000:706.679 - 0.006ms returns 0
T62F8 000:706.685 JLINK_WriteReg(R1, 0x00000200)
T62F8 000:706.690 - 0.005ms returns 0
T62F8 000:706.696 JLINK_WriteReg(R2, 0x000000FF)
T62F8 000:706.701 - 0.005ms returns 0
T62F8 000:706.706 JLINK_WriteReg(R3, 0x00000000)
T62F8 000:706.711 - 0.005ms returns 0
T62F8 000:706.721 JLINK_WriteReg(R4, 0x00000000)
T62F8 000:706.726 - 0.004ms returns 0
T62F8 000:706.732 JLINK_WriteReg(R5, 0x00000000)
T62F8 000:706.737 - 0.004ms returns 0
T62F8 000:706.742 JLINK_WriteReg(R6, 0x00000000)
T62F8 000:706.747 - 0.005ms returns 0
T62F8 000:706.753 JLINK_WriteReg(R7, 0x00000000)
T62F8 000:706.758 - 0.004ms returns 0
T62F8 000:706.763 JLINK_WriteReg(R8, 0x00000000)
T62F8 000:706.769 - 0.005ms returns 0
T62F8 000:706.774 JLINK_WriteReg(R9, 0x200001E8)
T62F8 000:706.779 - 0.005ms returns 0
T62F8 000:706.785 JLINK_WriteReg(R10, 0x00000000)
T62F8 000:706.790 - 0.005ms returns 0
T62F8 000:706.795 JLINK_WriteReg(R11, 0x00000000)
T62F8 000:706.800 - 0.004ms returns 0
T62F8 000:706.806 JLINK_WriteReg(R12, 0x00000000)
T62F8 000:706.811 - 0.005ms returns 0
T62F8 000:706.817 JLINK_WriteReg(R13 (SP), 0x20001000)
T62F8 000:706.822 - 0.005ms returns 0
T62F8 000:706.827 JLINK_WriteReg(R14, 0x20000001)
T62F8 000:706.832 - 0.004ms returns 0
T62F8 000:706.838 JLINK_WriteReg(R15 (PC), 0x20000020)
T62F8 000:706.843 - 0.005ms returns 0
T62F8 000:706.849 JLINK_WriteReg(XPSR, 0x01000000)
T62F8 000:706.854 - 0.005ms returns 0
T62F8 000:706.859 JLINK_WriteReg(MSP, 0x20001000)
T62F8 000:706.864 - 0.005ms returns 0
T62F8 000:706.870 JLINK_WriteReg(PSP, 0x20001000)
T62F8 000:706.875 - 0.004ms returns 0
T62F8 000:706.880 JLINK_WriteReg(CFBP, 0x00000000)
T62F8 000:706.885 - 0.004ms returns 0
T62F8 000:706.891 JLINK_SetBPEx(Addr = 0x20000000, Type = 0xFFFFFFF2)
T62F8 000:706.897 - 0.006ms returns 0x0000000E
T62F8 000:706.903 JLINK_Go()
T62F8 000:706.913   CPU_ReadMem(4 bytes @ 0xE0001000)
T62F8 000:710.914 - 4.010ms 
T62F8 000:710.948 JLINK_IsHalted()
T62F8 000:714.601   CPU_ReadMem(2 bytes @ 0x20000000)
T62F8 000:715.080 - 4.132ms returns TRUE
T62F8 000:715.101 JLINK_ReadReg(R15 (PC))
T62F8 000:715.107 - 0.006ms returns 0x20000000
T62F8 000:715.115 JLINK_ClrBPEx(BPHandle = 0x0000000E)
T62F8 000:715.120 - 0.005ms returns 0x00
T62F8 000:715.127 JLINK_ReadReg(R0)
T62F8 000:715.132 - 0.005ms returns 0x00000001
T62F8 000:715.139 JLINK_HasError()
T62F8 000:715.203 JLINK_WriteReg(R0, 0x08000C00)
T62F8 000:715.210 - 0.006ms returns 0
T62F8 000:715.215 JLINK_WriteReg(R1, 0x00000200)
T62F8 000:715.221 - 0.005ms returns 0
T62F8 000:715.226 JLINK_WriteReg(R2, 0x000000FF)
T62F8 000:715.231 - 0.005ms returns 0
T62F8 000:715.236 JLINK_WriteReg(R3, 0x00000000)
T62F8 000:715.241 - 0.004ms returns 0
T62F8 000:715.247 JLINK_WriteReg(R4, 0x00000000)
T62F8 000:715.252 - 0.004ms returns 0
T62F8 000:715.257 JLINK_WriteReg(R5, 0x00000000)
T62F8 000:715.262 - 0.005ms returns 0
T62F8 000:715.268 JLINK_WriteReg(R6, 0x00000000)
T62F8 000:715.273 - 0.004ms returns 0
T62F8 000:715.278 JLINK_WriteReg(R7, 0x00000000)
T62F8 000:715.283 - 0.004ms returns 0
T62F8 000:715.289 JLINK_WriteReg(R8, 0x00000000)
T62F8 000:715.294 - 0.005ms returns 0
T62F8 000:715.299 JLINK_WriteReg(R9, 0x200001E8)
T62F8 000:715.304 - 0.004ms returns 0
T62F8 000:715.310 JLINK_WriteReg(R10, 0x00000000)
T62F8 000:715.314 - 0.005ms returns 0
T62F8 000:715.320 JLINK_WriteReg(R11, 0x00000000)
T62F8 000:715.325 - 0.004ms returns 0
T62F8 000:715.330 JLINK_WriteReg(R12, 0x00000000)
T62F8 000:715.336 - 0.005ms returns 0
T62F8 000:715.341 JLINK_WriteReg(R13 (SP), 0x20001000)
T62F8 000:715.346 - 0.005ms returns 0
T62F8 000:715.352 JLINK_WriteReg(R14, 0x20000001)
T62F8 000:715.357 - 0.005ms returns 0
T62F8 000:715.362 JLINK_WriteReg(R15 (PC), 0x200000F4)
T62F8 000:715.367 - 0.005ms returns 0
T62F8 000:715.373 JLINK_WriteReg(XPSR, 0x01000000)
T62F8 000:715.378 - 0.005ms returns 0
T62F8 000:715.384 JLINK_WriteReg(MSP, 0x20001000)
T62F8 000:715.389 - 0.004ms returns 0
T62F8 000:715.394 JLINK_WriteReg(PSP, 0x20001000)
T62F8 000:715.399 - 0.005ms returns 0
T62F8 000:715.405 JLINK_WriteReg(CFBP, 0x00000000)
T62F8 000:715.410 - 0.005ms returns 0
T62F8 000:715.416 JLINK_SetBPEx(Addr = 0x20000000, Type = 0xFFFFFFF2)
T62F8 000:715.422 - 0.005ms returns 0x0000000F
T62F8 000:715.427 JLINK_Go()
T62F8 000:715.441   CPU_ReadMem(4 bytes @ 0xE0001000)
T62F8 000:719.452 - 4.023ms 
T62F8 000:719.470 JLINK_IsHalted()
T62F8 000:719.979 - 0.508ms returns FALSE
T62F8 000:719.992 JLINK_HasError()
T62F8 000:722.065 JLINK_IsHalted()
T62F8 000:725.779   CPU_ReadMem(2 bytes @ 0x20000000)
T62F8 000:726.417 - 4.351ms returns TRUE
T62F8 000:726.440 JLINK_ReadReg(R15 (PC))
T62F8 000:726.448 - 0.007ms returns 0x20000000
T62F8 000:726.454 JLINK_ClrBPEx(BPHandle = 0x0000000F)
T62F8 000:726.460 - 0.005ms returns 0x00
T62F8 000:726.466 JLINK_ReadReg(R0)
T62F8 000:726.471 - 0.005ms returns 0x00000000
T62F8 000:726.941 JLINK_HasError()
T62F8 000:726.957 JLINK_WriteReg(R0, 0x08000E00)
T62F8 000:726.964 - 0.006ms returns 0
T62F8 000:726.969 JLINK_WriteReg(R1, 0x00000200)
T62F8 000:726.975 - 0.005ms returns 0
T62F8 000:726.981 JLINK_WriteReg(R2, 0x000000FF)
T62F8 000:726.986 - 0.005ms returns 0
T62F8 000:726.991 JLINK_WriteReg(R3, 0x00000000)
T62F8 000:726.996 - 0.005ms returns 0
T62F8 000:727.002 JLINK_WriteReg(R4, 0x00000000)
T62F8 000:727.007 - 0.004ms returns 0
T62F8 000:727.012 JLINK_WriteReg(R5, 0x00000000)
T62F8 000:727.017 - 0.004ms returns 0
T62F8 000:727.023 JLINK_WriteReg(R6, 0x00000000)
T62F8 000:727.028 - 0.004ms returns 0
T62F8 000:727.033 JLINK_WriteReg(R7, 0x00000000)
T62F8 000:727.038 - 0.004ms returns 0
T62F8 000:727.044 JLINK_WriteReg(R8, 0x00000000)
T62F8 000:727.049 - 0.005ms returns 0
T62F8 000:727.055 JLINK_WriteReg(R9, 0x200001E8)
T62F8 000:727.060 - 0.005ms returns 0
T62F8 000:727.065 JLINK_WriteReg(R10, 0x00000000)
T62F8 000:727.071 - 0.005ms returns 0
T62F8 000:727.076 JLINK_WriteReg(R11, 0x00000000)
T62F8 000:727.081 - 0.005ms returns 0
T62F8 000:727.087 JLINK_WriteReg(R12, 0x00000000)
T62F8 000:727.092 - 0.004ms returns 0
T62F8 000:727.097 JLINK_WriteReg(R13 (SP), 0x20001000)
T62F8 000:727.103 - 0.005ms returns 0
